Circuit: * C:\Users\Agus\Documents\GitHub\E2-TPs\TP1\Simulacion\Circuito Final 723\Draft2.asc

Direct Newton iteration failed to find .op point.  (Use ".option noopiter" to skip.)
Starting Gmin stepping
Gmin = 10
Gmin = 1.07374
Gmin = 0.115292
Gmin = 0.0123794
Gmin = 0.00132923
Gmin = 0.000142725
Gmin = 1.5325e-05
Gmin = 1.6455e-06
Gmin = 1.76685e-07
Gmin = 1.89714e-08
Gmin = 2.03704e-09
Gmin = 2.18725e-10
Gmin = 2.34854e-11
Gmin = 2.52173e-12
Gmin = 2.70769e-13
Gmin = 0
Gmin stepping succeeded in finding the operating point.

Semiconductor Device Operating Points:
                        --- Bipolar Transistors ---
Name:     q:u1:1      q:u1:3      q:u1:4      q:u1:2      q:u1:5
Model:    u1:qpi      u1:qpi      u1:qpi      u1:qpa      u1:qnq
Ib:       3.61e-12    9.57e-13    9.81e-13    3.43e-12    7.04e-14
Ic:      -1.65e-12    1.01e-16    1.01e-16   -1.57e-12   -3.32e-13
Vbe:      1.96e+00    9.57e-01    9.81e-01    1.86e+00   -1.82e-01
Vbc:      1.65e+00    0.00e+00    0.00e+00    1.57e+00    1.73e-01
Vce:      3.08e-01    9.57e-01    9.81e-01    2.84e-01   -3.55e-01
BetaDC:  -4.57e-01    1.05e-04    1.03e-04   -4.59e-01   -4.72e+00
Gm:      -6.91e-43   -3.90e-15   -3.90e-15   -1.57e-41   -3.08e-12
Rpi:      1.00e+12    1.00e+12    1.00e+12    1.00e+12    1.00e+12
Rx:       1.70e+03    1.70e+03    1.70e+03    1.70e+03    0.00e+00
Ro:       1.45e+42    2.56e+14    2.56e+14    6.35e+40    3.25e+11
Cbe:      0.00e+00    0.00e+00    0.00e+00    0.00e+00    0.00e+00
Cbc:      0.00e+00    0.00e+00    0.00e+00    0.00e+00    0.00e+00
Cjs:      0.00e+00    0.00e+00    0.00e+00    0.00e+00    0.00e+00
BetaAC:  -6.91e-31   -3.90e-03   -3.90e-03   -1.57e-29   -3.08e+00
Cbx:      0.00e+00    0.00e+00    0.00e+00    0.00e+00    0.00e+00
Ft:       0.00e+00    0.00e+00    0.00e+00    0.00e+00    0.00e+00

Name:     q:u1:6      q:u1:8      q:u1:9      q:u1:10     q:u1:11
Model:    u1:qnq      u1:qnq      u1:qnq      u1:qnq      u1:qnq
Ib:      -1.82e-13   -1.25e-12    8.52e-07    2.68e-06    6.48e-07
Ic:      -9.99e-17    1.79e-14   -1.70e-06   -5.36e-06   -1.30e-06
Vbe:     -1.82e-01   -1.23e+00   -3.41e-02    3.68e-02   -1.33e-01
Vbc:      0.00e+00   -1.79e-02    5.91e-01    6.21e-01    5.84e-01
Vce:     -1.82e-01   -1.21e+00   -6.26e-01   -5.84e-01   -7.18e-01
BetaDC:   5.49e-04   -1.43e-02   -2.00e+00   -2.00e+00   -2.00e+00
Gm:      -3.86e-15   -1.93e-15   -3.30e-05   -1.04e-04   -2.50e-05
Rpi:      1.00e+12    1.00e+12    1.00e+12    1.00e+12    1.00e+12
Rx:       0.00e+00    0.00e+00    0.00e+00    0.00e+00    0.00e+00
Ro:       2.59e+14    5.17e+14    3.03e+04    9.65e+03    3.99e+04
Cbe:      0.00e+00    0.00e+00    0.00e+00    0.00e+00    0.00e+00
Cbc:      0.00e+00    0.00e+00    0.00e+00    0.00e+00    0.00e+00
Cjs:      0.00e+00    0.00e+00    0.00e+00    0.00e+00    0.00e+00
BetaAC:  -3.86e-03   -1.93e-03   -3.30e+07   -1.04e+08   -2.50e+07
Cbx:      0.00e+00    0.00e+00    0.00e+00    0.00e+00    0.00e+00
Ft:       0.00e+00    0.00e+00    0.00e+00    0.00e+00    0.00e+00

Name:     q:u1:13     q:u1:16     q:u1:20     q:u1:7      q:u1:12
Model:    u1:qnq      u1:qnq      u1:qnq      u1:qpq      u1:qpq
Ib:       1.00e-13    5.00e-07    1.18e-05   -8.99e-11   -2.98e-06
Ic:      -1.04e-13   -1.00e-06    9.88e-04    1.81e-10    5.95e-06
Vbe:     -7.16e-05    4.85e-02    7.79e-01    9.10e-01   -9.64e-02
Vbc:      9.63e-02    5.78e-01    0.00e+00   -3.55e-01   -6.26e-01
Vce:     -9.64e-02   -5.29e-01    7.79e-01    1.26e+00    5.29e-01
BetaDC:  -1.04e+00   -2.00e+00    8.35e+01   -2.02e+00   -2.00e+00
Gm:      -1.56e-13   -1.93e-05    3.28e-02   -3.50e-09   -1.15e-04
Rpi:      1.00e+12    1.00e+12    2.19e+03    1.00e+12    9.98e+11
Rx:       0.00e+00    0.00e+00    0.00e+00    0.00e+00    0.00e+00
Ro:       6.25e+12    5.17e+04    1.19e+14    2.86e+08    8.69e+03
Cbe:      0.00e+00    0.00e+00    0.00e+00    0.00e+00    0.00e+00
Cbc:      0.00e+00    0.00e+00    0.00e+00    0.00e+00    0.00e+00
Cjs:      0.00e+00    0.00e+00    0.00e+00    0.00e+00    0.00e+00
BetaAC:  -1.56e-01   -1.93e+07    7.17e+01   -3.50e+03   -1.15e+08
Cbx:      0.00e+00    0.00e+00    0.00e+00    0.00e+00    0.00e+00
Ft:       0.00e+00    0.00e+00    0.00e+00    0.00e+00    0.00e+00

Name:     q:u1:14     q:u1:15     q:u1:17     q:u1:18     q:u1:19
Model:    u1:qpq      u1:qpq      u1:qpq      u1:qpq      u1:qpq
Ib:      -1.20e-07   -6.00e-08   -1.00e-06    1.00e-12    8.75e-13
Ic:       3.88e-12    9.26e-11    2.00e-06   -4.70e-14    1.12e-13
Vbe:     -5.58e-01   -5.40e-01    2.50e-02    9.57e-01    9.81e-01
Vbc:     -5.40e-01   -5.22e-01   -5.96e-01    4.69e-02   -1.02e-01
Vce:     -1.79e-02   -1.79e-02    6.21e-01    9.10e-01    1.08e+00
BetaDC:  -3.23e-05   -1.54e-03   -2.00e+00   -4.68e-02    1.28e-01
Gm:       4.55e-06    2.27e-06   -3.87e-05   -6.31e-16   -1.97e-13
Rpi:      1.10e+07    2.20e+07    1.00e+12    1.00e+12    1.00e+12
Rx:       0.00e+00    0.00e+00    0.00e+00    0.00e+00    0.00e+00
Ro:       2.20e+05    4.40e+05    2.59e+04    1.59e+15    5.09e+12
Cbe:      0.00e+00    0.00e+00    0.00e+00    0.00e+00    0.00e+00
Cbc:      0.00e+00    0.00e+00    0.00e+00    0.00e+00    0.00e+00
Cjs:      0.00e+00    0.00e+00    0.00e+00    0.00e+00    0.00e+00
BetaAC:   5.00e+01    5.00e+01   -3.87e+07   -6.31e-04   -1.97e-01
Cbx:      0.00e+00    0.00e+00    0.00e+00    0.00e+00    0.00e+00
Ft:       0.00e+00    0.00e+00    0.00e+00    0.00e+00    0.00e+00

Name:     q:u2:1      q:u2:3      q:u2:4      q:u2:2      q:u2:5
Model:    u2:qpi      u2:qpi      u2:qpi      u2:qpa      u2:qnq
Ib:      -3.39e-09   -3.38e-09   -1.61e-08   -1.65e-08    1.28e-06
Ic:      -1.04e-06   -1.03e-06   -4.93e-06   -4.98e-06    1.08e-06
Vbe:     -5.96e-01   -5.96e-01   -6.37e-01   -6.37e-01    6.29e-01
Vbc:      1.65e+00    0.00e+00    0.00e+00    1.57e+00    6.01e-01
Vce:     -2.25e+00   -5.96e-01   -6.37e-01   -2.21e+00    2.73e-02
BetaDC:   3.08e+02    3.06e+02    3.05e+02    3.01e+02    8.47e-01
Gm:       4.04e-05    4.00e-05    1.90e-04    1.92e-04    9.00e-05
Rpi:      7.62e+06    7.65e+06    1.60e+06    1.57e+06    7.24e+05
Rx:       1.70e+03    1.70e+03    1.70e+03    1.70e+03    0.00e+00
Ro:       2.79e+08    2.80e+08    5.89e+07    4.96e+07    2.08e+04
Cbe:      0.00e+00    0.00e+00    0.00e+00    0.00e+00    0.00e+00
Cbc:      0.00e+00    0.00e+00    0.00e+00    0.00e+00    0.00e+00
Cjs:      0.00e+00    0.00e+00    0.00e+00    0.00e+00    0.00e+00
BetaAC:   3.08e+02    3.06e+02    3.05e+02    3.01e+02    6.51e+01
Cbx:      0.00e+00    0.00e+00    0.00e+00    0.00e+00    0.00e+00
Ft:       0.00e+00    0.00e+00    0.00e+00    0.00e+00    0.00e+00

Name:     q:u2:6      q:u2:8      q:u2:9      q:u2:10     q:u2:11
Model:    u2:qnq      u2:qnq      u2:qnq      u2:qnq      u2:qnq
Ib:       3.57e-08    1.54e-08   -3.16e-12    3.83e-14   -7.44e-14
Ic:       3.57e-06    1.54e-06    3.22e-12    1.88e-14    7.45e-14
Vbe:      6.29e-01    6.07e-01    6.22e-02    5.63e-02    5.26e-09
Vbc:      0.00e+00   -2.63e+00   -3.22e+00   -1.80e-02   -7.43e-02
Vce:      6.29e-01    3.24e+00    3.28e+00    7.43e-02    7.43e-02
BetaDC:   9.99e+01    1.00e+02   -1.02e+00    4.91e-01   -1.00e+00
Gm:       1.38e-04    5.95e-05    4.28e-14    3.22e-14    3.65e-15
Rpi:      7.24e+05    1.68e+06    1.00e+12    1.00e+12    1.00e+12
Rx:       0.00e+00    0.00e+00    0.00e+00    0.00e+00    0.00e+00
Ro:       2.58e+14    3.89e+58    3.00e+68    5.18e+14    4.57e+15
Cbe:      0.00e+00    0.00e+00    0.00e+00    0.00e+00    0.00e+00
Cbc:      0.00e+00    0.00e+00    0.00e+00    0.00e+00    0.00e+00
Cjs:      0.00e+00    0.00e+00    0.00e+00    0.00e+00    0.00e+00
BetaAC:   9.99e+01    9.99e+01    4.28e-02    3.22e-02    3.65e-03
Cbx:      0.00e+00    0.00e+00    0.00e+00    0.00e+00    0.00e+00
Ft:       0.00e+00    0.00e+00    0.00e+00    0.00e+00    0.00e+00

Name:     q:u2:13     q:u2:16     q:u2:20     q:u2:7      q:u2:12
Model:    u2:qnq      u2:qnq      u2:qnq      u2:qpq      u2:qpq
Ib:      -5.64e-14    5.00e-07    1.18e-05   -5.93e-08    3.34e-12
Ic:       5.65e-14    4.95e-05    9.88e-04   -5.91e-06   -3.28e-12
Vbe:      3.38e-12    6.97e-01    7.79e-01   -6.42e-01    5.63e-02
Vbc:     -5.63e-02   -2.53e+00    0.00e+00    2.73e-02    3.28e+00
Vce:      5.63e-02    3.23e+00    7.79e-01   -6.69e-01   -3.23e+00
BetaDC:  -1.00e+00    9.90e+01    8.35e+01    9.98e+01   -9.83e-01
Gm:       3.43e-15    1.90e-03    3.28e-02    2.28e-04    4.38e-16
Rpi:      1.00e+12    5.17e+04    2.19e+03    4.37e+05    1.00e+12
Rx:       0.00e+00    0.00e+00    0.00e+00    0.00e+00    0.00e+00
Ro:       2.28e+15    7.25e+56    1.19e+14    6.96e+14    3.32e+69
Cbe:      0.00e+00    0.00e+00    0.00e+00    0.00e+00    0.00e+00
Cbc:      0.00e+00    0.00e+00    0.00e+00    0.00e+00    0.00e+00
Cjs:      0.00e+00    0.00e+00    0.00e+00    0.00e+00    0.00e+00
BetaAC:   3.43e-03    9.81e+01    7.17e+01    9.96e+01    4.38e-04
Cbx:      0.00e+00    0.00e+00    0.00e+00    0.00e+00    0.00e+00
Ft:       0.00e+00    0.00e+00    0.00e+00    0.00e+00    0.00e+00

Name:     q:u2:14     q:u2:15     q:u2:17     q:u2:18     q:u2:19
Model:    u2:qpq      u2:qpq      u2:qpq      u2:qpq      u2:qpq
Ib:      -1.20e-07   -6.00e-08   -1.00e-06   -1.02e-08   -4.90e-08
Ic:      -1.20e-05   -5.99e-06   -1.09e-09   -1.02e-06   -4.89e-06
Vbe:     -6.60e-01   -6.42e-01   -6.13e-01   -5.96e-01   -6.37e-01
Vbc:     -2.05e-01    1.99e+00   -5.95e-01    2.22e+00    1.58e+00
Vce:     -4.54e-01   -2.63e+00   -1.80e-02   -2.82e+00   -2.22e+00
BetaDC:   9.96e+01    9.98e+01    1.09e-03    1.00e+02    9.98e+01
Gm:       4.60e-04    2.31e-04    3.79e-05    3.96e-05    1.89e-04
Rpi:      2.16e+05    4.31e+05    1.32e+06    2.52e+06    5.28e+05
Rx:       0.00e+00    0.00e+00    0.00e+00    0.00e+00    0.00e+00
Ro:       8.06e+10    6.07e+47    2.64e+04    5.21e+51    8.40e+40
Cbe:      0.00e+00    0.00e+00    0.00e+00    0.00e+00    0.00e+00
Cbc:      0.00e+00    0.00e+00    0.00e+00    0.00e+00    0.00e+00
Cjs:      0.00e+00    0.00e+00    0.00e+00    0.00e+00    0.00e+00
BetaAC:   9.92e+01    9.96e+01    5.00e+01    9.99e+01    9.97e+01
Cbx:      0.00e+00    0.00e+00    0.00e+00    0.00e+00    0.00e+00
Ft:       0.00e+00    0.00e+00    0.00e+00    0.00e+00    0.00e+00

                        --- VDMOSFET Transistors ---
Name:          m1
Model:      si7336adp
Id:          3.67e+00
Vgs:         3.30e+00
Vds:         2.54e-02
Vth:         2.90e+00
Gm:          9.45e+00
Gds:         1.94e+02
Cgs:         5.20e-09
Cgd:         1.60e-09
Cbody:       2.96e-09

                        --- MOSFET Transistors ---
Name:          m2
Model:        nmos
Id:          0.00e+00
Vgs:         3.23e+00
Vds:         0.00e+00
Vbs:         0.00e+00
Vth:         0.00e+00
Vdsat:       3.23e+00
Gm:          0.00e+00
Gds:         6.45e-05
Gmb:         0.00e+00
Cbd:         0.00e+00
Cbs:         0.00e+00
Cgsov:       0.00e+00
Cgdov:       0.00e+00
Cgbov:       0.00e+00
Cgs:         0.00e+00
Cgd:         0.00e+00
Cgb:         0.00e+00



Date: Tue May  2 22:24:18 2023
Total elapsed time: 0.189 seconds.

tnom = 27
temp = 27
method = trap
totiter = 575
traniter = 0
tranpoints = 0
accept = 0
rejected = 0
matrix size = 133
fillins = 112
solver = Normal
Avg thread counts: 1.5/0.0/3.0/1.5
Matrix Compiler1: 16.00 KB object code size
Matrix Compiler2: 13.31 KB object code size  3.0/3.6/[2.1]

