Circuit: * C:\Users\Agus\Documents\GitHub\E2-TPs\P1\Ej2\Simulacion\Ej2.asc

Warning: Multiple definitions of model "2scr375p" Type: BJT
Warning: Multiple definitions of model "bc857b" Type: BJT
Warning: Multiple definitions of model "bc847c" Type: BJT
Warning: Multiple definitions of model "bc847b" Type: BJT
WARNING: Less than two connections to node nc_01.  This node is used by q7.
WARNING: Less than two connections to node nc_02.  This node is used by q7.
Direct Newton iteration for .op point succeeded.
Semiconductor Device Operating Points:
                        --- Diodes ---
Name:      d1
Model:  tfzv9_1b
Id:     -6.23e-03
Vd:     -8.77e+00
Req:     8.31e-01
CAP:     5.06e-08

                        --- Bipolar Transistors ---
Name:       q1          q2          q3          q4          q7
Model:    2n2907      2n2907      2n2222      2n2222        npn
Ib:      -3.75e-12    1.04e-11   -1.62e-12   -2.35e-11    0.00e+00
Ic:      -8.65e-10   -9.81e-10    8.58e-10    1.50e-11   -0.00e+00
Vbe:     -2.94e-01   -2.94e-01    2.92e-01   -8.48e+00    0.00e+00
Vbc:      0.00e+00    1.42e+01   -5.93e+00   -1.50e+01    0.00e+00
Vce:     -2.94e-01   -1.45e+01    6.22e+00    6.52e+00    0.00e+00
BetaDC:   2.30e+02   -9.42e+01   -5.30e+02   -6.39e-01    0.00e+00
Gm:       3.34e-08    3.74e-08    3.29e-08    0.00e+00    0.00e+00
Rpi:      7.42e+09    7.42e+09    6.39e+09    1.00e+12    1.00e+12
Rx:       1.00e+01    1.00e+01    1.00e+01    1.00e+01    0.00e+00
Ro:       1.32e+11    1.39e+11    1.24e+11    0.00e+00    2.59e+14
Cbe:      3.54e-11    3.54e-11    2.94e-11    1.09e-11    0.00e+00
Cbc:      8.00e-12    2.98e-12    3.89e-12    2.93e-12    0.00e+00
Cjs:      0.00e+00    0.00e+00    0.00e+00    0.00e+00    0.00e+00
BetaAC:   2.48e+02    2.77e+02    2.10e+02    0.00e+00    0.00e+00
Cbx:      0.00e+00    0.00e+00    0.00e+00    0.00e+00    0.00e+00
Ft:       1.23e+02    1.55e+02    1.57e+02    1.15e-02    0.00e+00

Name:       q5          q6
Model:      npn      bc807-40
Ib:       9.81e-10   -9.95e-08
Ic:       9.95e-08   -4.56e-05
Vbe:      5.36e-01   -4.90e-01
Vbc:     -1.40e+01    1.45e+01
Vce:      1.45e+01   -1.50e+01
BetaDC:   1.01e+02    4.58e+02
Gm:       3.85e-06    1.75e-03
Rpi:      2.60e+07    2.80e+05
Rx:       0.00e+00    3.92e+01
Ro:       0.00e+00    9.24e+05
Cbe:      0.00e+00    0.00e+00
Cbc:      0.00e+00    0.00e+00
Cjs:      0.00e+00    0.00e+00
BetaAC:   1.00e+02    4.90e+02
Cbx:      0.00e+00    0.00e+00
Ft:       0.00e+00    0.00e+00



Date: Thu Apr 27 15:12:44 2023
Total elapsed time: 0.240 seconds.

tnom = 27
temp = 27
method = trap
totiter = 36
traniter = 0
tranpoints = 0
accept = 0
rejected = 0
matrix size = 28
fillins = 14
solver = Normal
Avg thread counts: 4.0/0.0/4.0/4.0
Matrix Compiler1: 3.04 KB object code size
Matrix Compiler2:     215 opcodes
