Circuit: * C:\Users\Agus\Documents\GitHub\E2-TPs\P1\Ej2\Simulacion\Ej2.asc

Warning: Multiple definitions of model "2scr375p" Type: BJT
Warning: Multiple definitions of model "bc857b" Type: BJT
Warning: Multiple definitions of model "bc847c" Type: BJT
Warning: Multiple definitions of model "bc847b" Type: BJT
WARNING: Less than two connections to node nc_01.  This node is used by q7.
WARNING: Less than two connections to node nc_02.  This node is used by q7.
Direct Newton iteration failed to find .op point.  (Use ".option noopiter" to skip.)
Starting Gmin stepping
Gmin = 10
Gmin = 1.07374
Gmin = 0.115292
Gmin = 0.0123794
Gmin = 0.00132923
Gmin = 0.000142725
Gmin = 1.5325e-05
Gmin = 1.6455e-06
Gmin = 1.76685e-07
Gmin = 1.89714e-08
Gmin = 2.03704e-09
Gmin = 2.18725e-10
Gmin = 2.34854e-11
Gmin = 2.52173e-12
Gmin = 2.70769e-13
Gmin = 0
Gmin stepping succeeded in finding the operating point.

Semiconductor Device Operating Points:
                        --- Diodes ---
Name:      d1
Model:  tfzv9_1b
Id:     -6.23e-03
Vd:     -8.77e+00
Req:     8.31e-01
CAP:     5.06e-08

                        --- Bipolar Transistors ---
Name:       q1          q2          q3          q4          q7
Model:    2n2907      2n2907      2n2222      2n2222        npn
Ib:      -3.45e-08   -3.45e-08    4.11e-08    2.75e-05    2.94e-19
Ic:      -8.63e-06   -8.94e-06    8.69e-06    5.73e-03   -1.92e-19
Vbe:     -5.32e-01   -5.32e-01    5.31e-01    7.01e-01    1.02e-07
Vbc:      0.00e+00    4.45e+00   -5.69e+00   -6.06e+00    1.91e-07
Vce:     -5.32e-01   -4.98e+00    6.22e+00    6.76e+00   -8.82e-08
BetaDC:   2.50e+02    2.59e+02    2.11e+02    2.08e+02   -6.53e-01
Gm:       3.33e-04    3.46e-04    3.36e-04    2.18e-01   -1.32e-20
Rpi:      7.50e+05    7.50e+05    6.29e+05    9.41e+02    1.00e+12
Rx:       1.00e+01    1.00e+01    1.00e+01    1.00e+01    0.00e+00
Ro:       1.39e+07    1.39e+07    1.22e+07    1.85e+04    2.59e+14
Cbe:      4.31e-11    0.00e+00    0.00e+00    0.00e+00    0.00e+00
Cbc:      8.00e-12    0.00e+00    0.00e+00    0.00e+00    0.00e+00
Cjs:      0.00e+00    0.00e+00    0.00e+00    0.00e+00    0.00e+00
BetaAC:   2.50e+02    2.59e+02    2.11e+02    2.05e+02   -1.32e-08
Cbx:      0.00e+00    0.00e+00    0.00e+00    0.00e+00    0.00e+00
Ft:       1.04e+06    0.00e+00    0.00e+00    0.00e+00    0.00e+00

Name:       q5          q6
Model:      npn      bc807-40
Ib:       8.94e-06   -8.94e-04
Ic:       8.94e-04   -2.55e-01
Vbe:      7.71e-01   -7.77e-01
Vbc:     -4.20e+00    4.97e+00
Vce:      4.97e+00   -5.75e+00
BetaDC:   1.00e+02    2.85e+02
Gm:       3.46e-02    7.01e+00
Rpi:      2.89e+03    2.94e+01
Rx:       0.00e+00    8.03e+00
Ro:       8.89e+84    1.25e+02
Cbe:      0.00e+00    0.00e+00
Cbc:      0.00e+00    0.00e+00
Cjs:      0.00e+00    0.00e+00
BetaAC:   1.00e+02    2.06e+02
Cbx:      0.00e+00    0.00e+00
Ft:       0.00e+00    0.00e+00



Date: Thu Apr 27 15:06:21 2023
Total elapsed time: 0.192 seconds.

tnom = 27
temp = 27
method = trap
totiter = 519
traniter = 0
tranpoints = 0
accept = 0
rejected = 0
matrix size = 28
fillins = 14
solver = Normal
Avg thread counts: 1.6/0.0/2.2/1.6
Matrix Compiler1: 3.04 KB object code size
Matrix Compiler2: 2.79 KB object code size  0.8/1.2/[0.7]

